"Freq [GHz]","Phi [deg]","Theta [deg]","dB(GainTotal) []"
24.5,0,0,7.05927299163272
24.5,0,1,7.05639119685109
24.5,0,2,7.04994953217718
24.5,0,3,7.03995100085606
24.5,0,4,7.02640061548923
24.5,0,5,7.00930540581202
24.5,0,6,6.98867442360787
24.5,0,7,6.96451874461752
24.5,0,8,6.93685146729758
24.5,0,9,6.90568770828022
24.5,0,10,6.87104459438519
24.5,0,11,6.83294125103621
24.5,0,12,6.791398786937
24.5,0,13,6.7464402748677
24.5,0,14,6.69809072847
24.5,0,15,6.64637707489971
24.5,0,16,6.59132812323836
24.5,0,17,6.53297452857106
24.5,0,18,6.47134875165596
24.5,0,19,6.40648501413185
24.5,0,20,6.33841924923382
24.5,0,21,6.26718904801299
24.5,0,22,6.19283360108487
24.5,0,23,6.1153936359611
24.5,0,24,6.03491135005191
24.5,0,25,5.95143033946023
24.5,0,26,5.86499552372353
24.5,0,27,5.77565306669468
24.5,0,28,5.68345029378964
24.5,0,29,5.58843560586476
24.5,0,30,5.49065839002183
24.5,0,31,5.39016892767255
24.5,0,32,5.28701830022592
24.5,0,33,5.18125829279198
24.5,0,34,5.07294129632193
24.5,0,35,4.96212020862906
24.5,0,36,4.84884833475492
24.5,0,37,4.73317928716199
24.5,0,38,4.61516688624719
24.5,0,39,4.49486506167861
24.5,0,40,4.3723277550633
24.5,0,41,4.24760882445396
24.5,0,42,4.12076195119965
24.5,0,43,3.99184054963896
24.5,0,44,3.86089768012431
24.5,0,45,3.7279859658536
24.5,0,46,3.5931575139712
24.5,0,47,3.45646384138377
24.5,0,48,3.31795580571965
24.5,0,49,3.17768354184303
24.5,0,50,3.03569640431698
24.5,0,51,2.89204291619273
24.5,0,52,2.74677072448779
24.5,0,53,2.59992656270131
24.5,0,54,2.45155622070375
24.5,0,55,2.30170452232744
24.5,0,56,2.15041531097677
24.5,0,57,1.99773144356996
24.5,0,58,1.84369479311867
24.5,0,59,1.68834626024661
24.5,0,60,1.53172579394234
24.5,0,61,1.37387242183434
24.5,0,62,1.21482429026588
24.5,0,63,1.05461871443312
24.5,0,64,0.893292238828711
24.5,0,65,0.730880708205842
24.5,0,66,0.567419349239327
24.5,0,67,0.402942863011858
24.5,0,68,0.237485528391217
24.5,0,69,0.0710813162870959
24.5,0,70,-0.096235985317642
24.5,0,71,-0.264432635778463
24.5,0,72,-0.43347479599236
24.5,0,73,-0.603328372893382
24.5,0,74,-0.773958854914485
24.5,0,75,-0.945331139283115
24.5,0,76,-1.11740935223265
24.5,0,77,-1.29015666344488
24.5,0,78,-1.46353509628888
24.5,0,79,-1.63750533568602
24.5,0,80,-1.81202653570385
24.5,0,81,-1.98705612926014
24.5,0,82,-2.16254964259337
24.5,0,83,-2.33846051742128
24.5,0,84,-2.51473994395396
24.5,0,85,-2.69133670814217
24.5,0,86,-2.86819705671213
24.5,0,87,-3.04526458365141
24.5,0,88,-3.22248014185132
24.5,0,89,-3.39978178356408
24.5,0,90,-3.57710473318073
24.5,0,91,-3.75438139556254
24.5,0,92,-3.93154140274852
24.5,0,93,-4.10851170130108
24.5,0,94,-4.28521668182877
24.5,0,95,-4.46157835133297
24.5,0,96,-4.63751654796106
24.5,0,97,-4.81294919651631
24.5,0,98,-4.98779260168644
24.5,0,99,-5.16196177442825
24.5,0,100,-5.33537078531495
24.5,0,101,-5.50793313695744
24.5,0,102,-5.67956214589955
24.5,0,103,-5.85017132272243
24.5,0,104,-6.0196747375433
24.5,0,105,-6.18798735673659
24.5,0,106,-6.3550253356202
24.5,0,107,-6.5207062511212
24.5,0,108,-6.68494925814366
24.5,0,109,-6.84767515358109
24.5,0,110,-7.00880633271449
24.5,0,111,-7.16826662416478
24.5,0,112,-7.32598099166397
24.5,0,113,-7.48187509368887
24.5,0,114,-7.63587469546358
24.5,0,115,-7.78790493195934
24.5,0,116,-7.9378894252599
24.5,0,117,-8.08574926495479
24.5,0,118,-8.231401865992
24.5,0,119,-8.37475972456614
24.5,0,120,-8.51572909902437
24.5,0,121,-8.65420864930363
24.5,0,122,-8.790088074915
24.5,0,123,-8.92324679778061
24.5,0,124,-9.05355274209086
24.5,0,125,-9.18086126853121
24.5,0,126,-9.30501432442649
24.5,0,127,-9.42583987421816
24.5,0,128,-9.54315167582145
24.5,0,129,-9.65674946736327
24.5,0,130,-9.76641962510503
24.5,0,131,-9.87193634654124
24.5,0,132,-9.97306340231727
24.5,0,133,-10.0695564864169
24.5,0,134,-10.1611661759026
24.5,0,135,-10.2476414894743
24.5,0,136,-10.3287340087107
24.5,0,137,-10.4042024979171
24.5,0,138,-10.4738179293181
24.5,0,139,-10.5373687915805
24.5,0,140,-10.5946665333625
24.5,0,141,-10.645550971984
24.5,0,142,-10.6898954826097
24.5,0,143,-10.7276117775041
24.5,0,144,-10.7586540894017
24.5,0,145,-10.7830225885285
24.5,0,146,-10.8007658890757
24.5,0,147,-10.8119825367069
24.5,0,148,-10.8168214117824
24.5,0,149,-10.815481030442
24.5,0,150,-10.8082077740667
24.5,0,151,-10.7952931234305
24.5,0,152,-10.7770700138148
24.5,0,153,-10.7539084589002
24.5,0,154,-10.7262106126577
24.5,0,155,-10.6944054490016
24.5,0,156,-10.6589432389235
24.5,0,157,-10.6202899952868
24.5,0,158,-10.5789220382042
24.5,0,159,-10.5353208110429
24.5,0,160,-10.4899680508605
24.5,0,161,-10.4433413895829
24.5,0,162,-10.3959104353401
24.5,0,163,-10.3481333585201
24.5,0,164,-10.3004539853083
24.5,0,165,-10.2532993833407
24.5,0,166,-10.2070779098349
24.5,0,167,-10.1621776820924
24.5,0,168,-10.1189654232944
24.5,0,169,-10.0777856325885
24.5,0,170,-10.0389600270836
24.5,0,171,-10.0027872039903
24.5,0,172,-9.96954247326871
24.5,0,173,-9.93947781431645
24.5,0,174,-9.91282191405773
24.5,0,175,-9.88978024797172
24.5,0,176,-9.870535169886
24.5,0,177,-9.8552459805868
24.5,0,178,-9.84404894935753
24.5,0,179,-9.83705726639644
24.5,0,180,-9.83436090767323
24.5,1,0,7.05927299163272
24.5,1,1,7.05608351783586
24.5,1,2,7.04933468209577
24.5,1,3,7.03902959659943
24.5,1,4,7.02517338721982
24.5,1,5,7.00777320085335
24.5,1,6,6.98683820982949
24.5,1,7,6.96237961325275
24.5,1,8,6.93441063513462
24.5,1,9,6.90294651917121
24.5,1,10,6.86800452002321
24.5,1,11,6.82960389095638
24.5,1,12,6.78776586770571
24.5,1,13,6.74251364843206
24.5,1,14,6.69387236964986
24.5,1,15,6.64186907801478
24.5,1,16,6.58653269787497
24.5,1,17,6.52789399450553
24.5,1,18,6.46598553296499
24.5,1,19,6.40084163253448
24.5,1,20,6.33249831672417
24.5,1,21,6.26099325885833
24.5,1,22,6.18636572327904
24.5,1,23,6.10865650223914
24.5,1,24,6.02790784858741
24.5,1,25,5.94416340438272
24.5,1,26,5.85746812560818
24.5,1,27,5.76786820319164
24.5,1,28,5.67541098057381
24.5,1,29,5.58014486809975
24.5,1,30,5.48211925454358
24.5,1,31,5.38138441610778
24.5,1,32,5.27799142326906
24.5,1,33,5.17199204587037
24.5,1,34,5.06343865688324
24.5,1,35,4.95238413528643
24.5,1,36,4.83888176852434
24.5,1,37,4.7229851550231
24.5,1,38,4.60474810725187
24.5,1,39,4.48422455582292
24.5,1,40,4.36146845512604
24.5,1,41,4.23653369099066
24.5,1,42,4.10947399086357
24.5,1,43,3.9803428369813
24.5,1,44,3.84919338300432
24.5,1,45,3.71607837456675
24.5,1,46,3.58105007417903
24.5,1,47,3.44416019090496
24.5,1,48,3.305459815217
24.5,1,49,3.16499935941716
24.5,1,50,3.02282850399456
24.5,1,51,2.87899615027653
24.5,1,52,2.73355037971663
24.5,1,53,2.58653842015295
24.5,1,54,2.43800661936093
24.5,1,55,2.28800042621922
24.5,1,56,2.13656437980234
24.5,1,57,1.98374210671176
24.5,1,58,1.82957632695489
24.5,1,59,1.67410886868008
24.5,1,60,1.51738069207284
24.5,1,61,1.35943192271365
24.5,1,62,1.20030189468862
24.5,1,63,1.04002920372983
24.5,1,64,0.878651770640349
24.5,1,65,0.71620691522766
24.5,1,66,0.552731440926447
24.5,1,67,0.388261730235833
24.5,1,68,0.222833851024408
24.5,1,69,0.0564836736676392
24.5,1,70,-0.110753001126022
24.5,1,71,-0.278840304072495
24.5,1,72,-0.447742149075983
24.5,1,73,-0.617422075595554
24.5,1,74,-0.787843082407065
24.5,1,75,-0.958967453771876
24.5,1,76,-1.13075657926463
24.5,1,77,-1.30317076877282
24.5,1,78,-1.47616906445826
24.5,1,79,-1.64970905176157
24.5,1,80,-1.82374667182907
24.5,1,81,-1.99823603804231
24.5,1,82,-2.17312925962435
24.5,1,83,-2.34837627557562
24.5,1,84,-2.52392470244444
24.5,1,85,-2.69971969965028
24.5,1,86,-2.87570385623796
24.5,1,87,-3.05181710303279
24.5,1,88,-3.22799665417315
24.5,1,89,-3.40417698190162
24.5,1,90,-3.58028982828049
24.5,1,91,-3.75626425714518
24.5,1,92,-3.93202674910463
24.5,1,93,-4.10750134172663
24.5,1,94,-4.28260981619908
24.5,1,95,-4.45727193072941
24.5,1,96,-4.63140569973516
24.5,1,97,-4.80492771649591
24.5,1,98,-4.97775351539902
24.5,1,99,-5.14979796824323
24.5,1,100,-5.32097570730389
24.5,1,101,-5.4912015660578
24.5,1,102,-5.66039102667281
24.5,1,103,-5.82846066165523
24.5,1,104,-5.99532855549154
24.5,1,105,-6.16091469080117
24.5,1,106,-6.32514128251761
24.5,1,107,-6.487933043017
24.5,1,108,-6.64921736099504
24.5,1,109,-6.80892437732042
24.5,1,110,-6.96698694212286
24.5,1,111,-7.12334043904281
24.5,1,112,-7.27792246489857
24.5,1,113,-7.43067235601489
24.5,1,114,-7.58153055608225
24.5,1,115,-7.7304378246393
24.5,1,116,-7.87733429003202
24.5,1,117,-8.02215835592875
24.5,1,118,-8.16484547607374
24.5,1,119,-8.30532681784464
24.5,1,120,-8.44352784123683
24.5,1,121,-8.57936682601087
24.5,1,122,-8.71275338578322
24.5,1,123,-8.8435870136688
24.5,1,124,-8.97175570953022
24.5,1,125,-9.09713474375706
24.5,1,126,-9.21958561654942
24.5,1,127,-9.33895527463478
24.5,1,128,-9.45507564886803
24.5,1,129,-9.56776357587306
24.5,1,130,-9.67682116435508
24.5,1,131,-9.78203666150827
24.5,1,132,-9.88318586663732
24.5,1,133,-9.98003412734422
24.5,1,134,-10.072338938169
24.5,1,135,-10.1598531423799
24.5,1,136,-10.2423287149211
24.5,1,137,-10.3195210789253
24.5,1,138,-10.3911938806565
24.5,1,139,-10.4571241196329
24.5,1,140,-10.5171075037494
24.5,1,141,-10.5709638754778
24.5,1,142,-10.6185425368245
24.5,1,143,-10.6597272897188
24.5,1,144,-10.6944410066028
24.5,1,145,-10.7226495543416
24.5,1,146,-10.7443649135138
24.5,1,147,-10.7596473640957
24.5,1,148,-10.7686066459879
24.5,1,149,-10.7714020463505
24.5,1,150,-10.7682414123038
24.5,1,151,-10.7593791338381
24.5,1,152,-10.7451131844728
24.5,1,153,-10.7257813433772
24.5,1,154,-10.7017567500969
24.5,1,155,-10.6734429603815
24.5,1,156,-10.6412686785064
24.5,1,157,-10.6056823384549
24.5,1,158,-10.5671466946506
24.5,1,159,-10.5261335644281
24.5,1,160,-10.4831188411819
24.5,1,161,-10.4385778712714
24.5,1,162,-10.392981261248
24.5,1,163,-10.3467911564704
24.5,1,164,-10.300458008946
24.5,1,165,-10.2544178321438
24.5,1,166,-10.2090899240255
24.5,1,167,-10.1648750267584
24.5,1,168,-10.1221538823697
24.5,1,169,-10.0812861376466
24.5,1,170,-10.0426095484272
24.5,1,171,-10.0064394325688
24.5,1,172,-9.97306832182057
24.5,1,173,-9.94276576508659
24.5,1,174,-9.91577823872885
24.5,1,175,-9.89232912328236
24.5,1,176,-9.87261870994497
24.5,1,177,-9.85682420426592
24.5,1,178,-9.84509969843726
24.5,1,179,-9.83757608740985
24.5,1,180,-9.83436090767323
24.5,2,0,7.05927299163272
24.5,2,1,7.0557761778083
24.5,2,2,7.04872033067705
24.5,2,3,7.03810867433932
24.5,2,4,7.02394645234368
24.5,2,5,7.00624093456094
24.5,2,6,6.98500142105593
24.5,2,7,6.96023924281925
24.5,2,8,6.93196775922007
24.5,2,9,6.90020235204063
24.5,2,10,6.86496041595466
24.5,2,11,6.82626134531573
24.5,2,12,6.78412651712654
24.5,2,13,6.73857927006845
24.5,2,14,6.68964487948025
24.5,2,15,6.63735052818778
24.5,2,16,6.58172527310089
24.5,2,17,6.52280000751188
24.5,2,18,6.46060741904948
24.5,2,19,6.3951819432647
24.5,2,20,6.32655971285013
24.5,2,21,6.25477850252075
24.5,2,22,6.17987766961385
24.5,2,23,6.10189809049598
24.5,2,24,6.0208820928974
24.5,2,25,5.93687338432756
24.5,2,26,5.84991697675924
24.5,2,27,5.76005910780303
24.5,2,28,5.66734715862811
24.5,2,29,5.57182956891806
24.5,2,30,5.4735557491828
24.5,2,31,5.37257599077782
24.5,2,32,5.26894137400986
24.5,2,33,5.16270367473355
24.5,2,34,5.05391526986545
24.5,2,35,4.94262904226094
24.5,2,36,4.8288982854141
24.5,2,37,4.71277660845153
24.5,2,38,4.59431784189835
24.5,2,39,4.47357594469699
24.5,2,40,4.35060491295858
24.5,2,41,4.22545869092177
24.5,2,42,4.09819108458576
24.5,2,43,3.96885567847302
24.5,2,44,3.83750575596383
24.5,2,45,3.70419422362941
24.5,2,46,3.56897353997389
24.5,2,47,3.43189564897862
24.5,2,48,3.29301191882547
24.5,2,49,3.15237308616026
24.5,2,50,3.01002920624287
24.5,2,51,2.86602960931863
24.5,2,52,2.72042286353557
24.5,2,53,2.57325674472486
24.5,2,54,2.42457821335748
24.5,2,55,2.27443339898794
24.5,2,56,2.12286759249606
24.5,2,57,1.96992524644
24.5,2,58,1.8156499838357
24.5,2,59,1.66008461568057
24.5,2,60,1.50327116753927
24.5,2,61,1.345250915507
24.5,2,62,1.18606443185782
24.5,2,63,1.02575164067059
24.5,2,64,0.864351883701473
24.5,2,65,0.701903996737123
24.5,2,66,0.538446396613731
24.5,2,67,0.374017179023559
24.5,2,68,0.208654227148238
24.5,2,69,0.0423953310565806
24.5,2,70,-0.124721682318755
24.5,2,71,-0.292658808957879
24.5,2,72,-0.461377717786334
24.5,2,73,-0.630839591662041
24.5,2,74,-0.80100496023507
24.5,2,75,-0.971833525843204
24.5,2,76,-1.14328398387332
24.5,2,77,-1.31531383930591
24.5,2,78,-1.48787922146389
24.5,2,79,-1.66093469930268
24.5,2,80,-1.83443309990008
24.5,2,81,-2.00832533312439
24.5,2,82,-2.18256022576812
24.5,2,83,-2.35708436872233
24.5,2,84,-2.53184198101988
24.5,2,85,-2.70677479478157
24.5,2,86,-2.88182196524112
24.5,2,87,-3.05692001008653
24.5,2,88,-3.2320027823185
24.5,2,89,-3.40700148067367
24.5,2,90,-3.58184470137171
24.5,2,91,-3.75645853450498
24.5,2,92,-3.93076670778089
24.5,2,93,-4.10469077953851
24.5,2,94,-4.27815038198332
24.5,2,95,-4.45106351441605
24.5,2,96,-4.62334688487634
24.5,2,97,-4.79491629709371
24.5,2,98,-4.96568707795883
24.5,2,99,-5.13557453893089
24.5,2,100,-5.30449446292609
24.5,2,101,-5.47236360634205
24.5,2,102,-5.63910020403019
24.5,2,103,-5.80462446330472
24.5,2,104,-5.96885903155469
24.5,2,105,-6.13172942078712
24.5,2,106,-6.2931643715596
24.5,2,107,-6.45309613833711
24.5,2,108,-6.61146067840284
24.5,2,109,-6.76819772712387
24.5,2,110,-6.92325074366074
24.5,2,111,-7.07656671313921
24.5,2,112,-7.22809579387343
24.5,2,113,-7.37779080142386
24.5,2,114,-7.52560652504938
24.5,2,115,-7.67149887641498
24.5,2,116,-7.81542387516933
24.5,2,117,-7.95733648112887
24.5,2,118,-8.09718928820403
24.5,2,119,-8.23493110078571
24.5,2,120,-8.37050541897998
24.5,2,121,-8.50384886473802
24.5,2,122,-8.63488958647763
24.5,2,123,-8.76354568512297
24.5,2,124,-8.88972370947873
24.5,2,125,-9.01331727335829
24.5,2,126,-9.13420585072288
24.5,2,127,-9.25225380804106
24.5,2,128,-9.36730973487148
24.5,2,129,-9.47920613398446
24.5,2,130,-9.58775953079437
24.5,2,131,-9.69277105806646
24.5,2,132,-9.79402756536747
24.5,2,133,-9.89130329315715
24.5,2,134,-9.98436213845632
24.5,2,135,-10.0729605225101
24.5,2,136,-10.1568508508453
24.5,2,137,-10.2357855329377
24.5,2,138,-10.3095215030539
24.5,2,139,-10.3778251567878
24.5,2,140,-10.4404775908368
24.5,2,141,-10.4972800084512
24.5,2,142,-10.5480591317504
24.5,2,143,-10.5926724467858
24.5,2,144,-10.631013099737
24.5,2,145,-10.6630142644309
24.5,2,146,-10.6886528133147
24.5,2,147,-10.7079521461249
24.5,2,148,-10.7209840618746
24.5,2,149,-10.7278695986557
24.5,2,150,-10.728778809557
24.5,2,151,-10.7239294886698
24.5,2,152,-10.7135849054323
24.5,2,153,-10.6980506453271
24.5,2,154,-10.6776706875938
24.5,2,155,-10.6528228742504
24.5,2,156,-10.6239139383549
24.5,2,157,-10.5913742630115
24.5,2,158,-10.5556525368891
24.5,2,159,-10.5172104584139
24.5,2,160,-10.4765176211693
24.5,2,161,-10.4340466894467
24.5,2,162,-10.3902689473654
24.5,2,163,-10.3456502793314
24.5,2,164,-10.3006476153432
24.5,2,165,-10.2557058528647
24.5,2,166,-10.2112552484004
24.5,2,167,-10.1677092568571
24.5,2,168,-10.125462785311
24.5,2,169,-10.0848908197128
24.5,2,170,-10.0463473780072
24.5,2,171,-10.0101647406626
24.5,2,172,-9.97665290921493
24.5,2,173,-9.94609924464601
24.5,2,174,-9.91876823979695
24.5,2,175,-9.89490138317791
24.5,2,176,-9.87471707515547
24.5,2,177,-9.85841056132966
24.5,2,178,-9.84615385177181
24.5,2,179,-9.83809559856181
24.5,2,180,-9.83436090767323
24.5,3,0,7.05927299163272
24.5,3,1,7.05546927021158
24.5,3,2,7.04810666405131
24.5,3,3,7.0371885116262
24.5,3,4,7.02272017802633
24.5,3,5,7.00470906134614
24.5,3,6,6.98316459598669
24.5,3,7,6.95809825273618
24.5,3,8,6.92952353549377
24.5,3,9,6.8974559745025
24.5,3,10,6.86191311596025
24.5,3,11,6.82291450788278
24.5,3,12,6.78048168209956
24.5,3,13,6.73463813227262
24.5,3,14,6.68540928783964
24.5,3,15,6.63282248379673
24.5,3,16,6.57690692625216
24.5,3,17,6.51769365370112
24.5,3,18,6.4552154939925
24.5,3,19,6.38950701698188
24.5,3,20,6.32060448289054
24.5,3,21,6.24854578641765
24.5,3,22,6.17337039668195
24.5,3,23,6.09511929310039
24.5,3,24,6.0138348973426
24.5,3,25,5.92956100153331
24.5,3,26,5.84234269290775
24.5,3,27,5.7522262751581
24.5,3,28,5.6592591867419
24.5,3,29,5.5634899164545
24.5,3,30,5.46496791659786
24.5,3,31,5.36374351410588
24.5,3,32,5.25986782001163
24.5,3,33,5.1533926376647
24.5,3,34,5.04437037012557
24.5,3,35,4.93285392717965
24.5,3,36,4.81889663242497
24.5,3,37,4.70255213089525
24.5,3,38,4.58387429768321
24.5,3,39,4.46291714802881
24.5,3,40,4.33973474933252
24.5,3,41,4.21438113554604
24.5,3,42,4.08691022438209
24.5,3,43,3.95737573777148
24.5,3,44,3.8258311259803
24.5,3,45,3.69232949578383
24.5,3,46,3.55692354307643
24.5,3,47,3.41966549028015
24.5,3,48,3.28060702889857
24.5,3,49,3.13979926754878
24.5,3,50,2.99729268579158
24.5,3,51,2.85313709407133
24.5,3,52,2.70738160007035
24.5,3,53,2.56007458177942
24.5,3,54,2.41126366758645
24.5,3,55,2.26099572368764
24.5,3,56,2.10931684913111
24.5,3,57,1.95627237880921
24.5,3,58,1.80190689472303
24.5,3,59,1.64626424584865
24.5,3,60,1.48938757693855
24.5,3,61,1.33131936659076
24.5,3,62,1.17210147491178
24.5,3,63,1.01177520108363
24.5,3,64,0.850381351119433
24.5,3,65,0.687960316052469
24.5,3,66,0.524552160748697
24.5,3,67,0.360196723459783
24.5,3,68,0.194933726140409
24.5,3,69,0.0288028954382416
24.5,3,70,-0.138155905874736
24.5,3,71,-0.305902537425676
24.5,3,72,-0.474396430307003
24.5,3,73,-0.643596427491063
24.5,3,74,-0.813460616643883
24.5,3,75,-0.983946156658615
24.5,3,76,-1.1550090995223
24.5,3,77,-1.32660420944283
24.5,3,78,-1.49868478149185
24.5,3,79,-1.67120246235831
24.5,3,80,-1.84410707614899
24.5,3,81,-2.01734645850838
24.5,3,82,-2.19086630264959
24.5,3,83,-2.36461002117926
24.5,3,84,-2.5385186278483
24.5,3,85,-2.71253064355093
24.5,3,86,-2.88658203101115
24.5,3,87,-3.0606061626187
24.5,3,88,-3.23453382578756
24.5,3,89,-3.40829326999027
24.5,3,90,-3.58181029925095
24.5,3,91,-3.75500841334255
24.5,3,92,-3.92780900021493
24.5,3,93,-4.10013158126762
24.5,3,94,-4.27189410997119
24.5,3,95,-4.4430133230325
24.5,3,96,-4.61340514180277
24.5,3,97,-4.78298511996112
24.5,3,98,-4.95166893169855
24.5,3,99,-5.11937289271936
24.5,3,100,-5.28601450441955
24.5,3,101,-5.45151300965671
24.5,3,102,-5.61578994666647
24.5,3,103,-5.77876968598412
24.5,3,104,-5.94037993378229
24.5,3,105,-6.10055218392013
24.5,3,106,-6.2592221002993
24.5,3,107,-6.41632981091048
24.5,3,108,-6.57182009529488
24.5,3,109,-6.72564244808279
24.5,3,110,-6.87775100283526
24.5,3,111,-7.02810430260817
24.5,3,112,-7.17666490646682
24.5,3,113,-7.32339882456212
24.5,3,114,-7.46827477828248
24.5,3,115,-7.61126328634163
24.5,3,116,-7.75233558237075
24.5,3,117,-7.89146237455963
24.5,3,118,-8.02861246304684
24.5,3,119,-8.16375123600159
24.5,3,120,-8.29683907058897
24.5,3,121,-8.42782967018513
24.5,3,122,-8.55666837423958
24.5,3,123,-8.68329048199102
24.5,3,124,-8.80761963575195
24.5,3,125,-8.92956631358532
24.5,3,126,-9.04902648477742
24.5,3,127,-9.16588048439927
24.5,3,128,-9.27999216522779
24.5,3,129,-9.39120838609862
24.5,3,130,-9.49935889505592
24.5,3,131,-9.60425666307482
24.5,3,132,-9.70569871925127
24.5,3,133,-9.80346753077095
24.5,3,134,-9.89733296031761
24.5,3,135,-9.98705481959274
24.5,3,136,-10.0723860201919
24.5,3,137,-10.1530763023562
24.5,3,138,-10.228876498531
24.5,3,139,-10.2995432630278
24.5,3,140,-10.3648441725698
24.5,3,141,-10.4245630766708
24.5,3,142,-10.4785055534712
24.5,3,143,-10.5265043078414
24.5,3,144,-10.5684243362287
24.5,3,145,-10.6041676785973
